T3198 146:439.480   SEGGER J-Link V6.88c Log File
T3198 146:439.521   DLL Compiled: Dec  4 2020 18:05:56
T3198 146:439.525   Logging started @ 2025-11-18 06:28
T3198 146:439.529 - 40311.550ms
T3198 146:439.536 JLINK_SetWarnOutHandler(...)
T3198 146:439.539 - 0.004ms
T3198 146:439.543 JLINK_OpenEx(...)
T3198 146:443.593   Firmware: J-Link V9 compiled May  7 2021 16:26:12
T3198 146:443.710   Decompressing FW timestamp took 97 us
T3198 146:449.944   Hardware: V9.70
T3198 146:449.960   S/N: 59768879
T3198 146:449.965   OEM: SEGGER
T3198 146:449.970   Feature(s): RDI, GDB, FlashDL, FlashBP, JFlash
T3198 146:451.281   TELNET listener socket opened on port 19021
T3198 146:453.757   WEBSRV Starting webserver
T3198 146:453.809   WEBSRV Failed to put socket into listener state (port 19080)
T3198 146:453.867   WEBSRV Webserver running on local port 19081
T3198 146:453.872 - 14.330ms returns "O.K."
T3198 146:453.921 JLINK_GetEmuCaps()
T3198 146:453.925 - 0.005ms returns 0xB9FF7BBF
T3198 146:453.930 JLINK_TIF_GetAvailable(...)
T3198 146:454.143 - 0.221ms
T3198 146:454.203 JLINK_SetErrorOutHandler(...)
T3198 146:454.214 - 0.012ms
T3198 146:454.222 JLINK_ExecCommand("ProjectFile = "D:\project\GitHub\redox_w_mul\redox_w\JLinkSettings.ini"", ...). 
T3198 146:454.804 - 0.586ms returns 0x00
T3198 146:456.284 JLINK_ExecCommand("Device = nRF51822_xxAA", ...). 
T3198 146:457.169   Device "NRF51822_XXAA" selected.
T3198 146:457.440 - 1.142ms returns 0x00
T3198 146:457.457 JLINK_GetHardwareVersion()
T3198 146:457.461 - 0.005ms returns 97000
T3198 146:457.466 JLINK_GetDLLVersion()
T3198 146:457.469 - 0.004ms returns 68803
T3198 146:457.473 JLINK_GetOEMString(...)
T3198 146:457.478 JLINK_GetFirmwareString(...)
T3198 146:457.481 - 0.005ms
T3198 146:459.287 JLINK_GetDLLVersion()
T3198 146:459.296 - 0.011ms returns 68803
T3198 146:459.303 JLINK_GetCompileDateTime()
T3198 146:459.306 - 0.005ms
T3198 146:460.135 JLINK_GetFirmwareString(...)
T3198 146:460.146 - 0.012ms
T3198 146:460.748 JLINK_GetHardwareVersion()
T3198 146:460.756 - 0.009ms returns 97000
T3198 146:461.759 JLINK_GetSN()
T3198 146:461.770 - 0.012ms returns 59768879
T3198 146:462.417 JLINK_GetOEMString(...)
T3198 146:467.119 JLINK_TIF_Select(JLINKARM_TIF_SWD)
T3198 146:468.027 - 0.919ms returns 0x00
T3198 146:468.064 JLINK_HasError()
T3198 146:468.071 JLINK_SetSpeed(500)
T3198 146:468.183 - 0.121ms
T3198 146:468.221 JLINK_GetId()
T3198 146:471.176   Found SW-DP with ID 0x0BB11477
T3198 146:477.617   DPIDR: 0x0BB11477
T3198 146:479.135   Scanning AP map to find all available APs
T3198 146:481.833   AP[1]: Stopped AP scan as end of AP map has been reached
T3198 146:483.426   AP[0]: AHB-AP (IDR: 0x04770021)
T3198 146:486.794   Iterating through AP map to find AHB-AP to use
T3198 146:490.186   AP[0]: Core found
T3198 146:491.679   AP[0]: AHB-AP ROM base: 0xF0000000
T3198 146:494.740   CPUID register: 0x410CC200. Implementer code: 0x41 (ARM)
T3198 146:496.629   Found Cortex-M0 r0p0, Little endian.
T3198 146:597.942   -- Max. mem block: 0x0000D368
T3198 146:601.757   CPU_ReadMem(4 bytes @ 0xE000EDF0)
T3198 146:602.885   CPU_ReadMem(4 bytes @ 0xE0002000)
T3198 146:609.699   FPUnit: 4 code (BP) slots and 0 literal slots
T3198 146:609.724   CPU_ReadMem(4 bytes @ 0xE000EDFC)
T3198 146:610.760   CPU_ReadMem(4 bytes @ 0xE0001000)
T3198 146:611.685   CPU_WriteMem(4 bytes @ 0xE0001000)
T3198 146:616.648   CoreSight components:
T3198 146:618.223   ROMTbl[0] @ F0000000
T3198 146:618.238   CPU_ReadMem(64 bytes @ 0xF0000000)
T3198 146:620.563   CPU_ReadMem(32 bytes @ 0xE00FFFE0)
T3198 146:623.989   ROMTbl[0][0]: E00FF000, CID: B105100D, PID: 000BB471 ROM Table
T3198 146:628.471   ROMTbl[1] @ E00FF000
T3198 146:628.484   CPU_ReadMem(64 bytes @ 0xE00FF000)
T3198 146:630.953   CPU_ReadMem(32 bytes @ 0xE000EFE0)
T3198 146:634.120   ROMTbl[1][0]: E000E000, CID: B105E00D, PID: 000BB008 SCS
T3198 146:634.134   CPU_ReadMem(32 bytes @ 0xE0001FE0)
T3198 146:637.298   ROMTbl[1][1]: E0001000, CID: B105E00D, PID: 000BB00A DWT
T3198 146:637.311   CPU_ReadMem(32 bytes @ 0xE0002FE0)
T3198 146:640.429   ROMTbl[1][2]: E0002000, CID: B105E00D, PID: 000BB00B FPB
T3198 146:640.442   CPU_ReadMem(32 bytes @ 0xF0002FE0)
T3198 146:643.389   ROMTbl[0][1]: F0002000, CID: 00000000, PID: 00000000 ???
T3198 146:643.403   CPU_ReadMem(4 bytes @ 0x10001004)
T3198 146:644.560 - 176.343ms returns 0x0BB11477
T3198 146:644.591 JLINK_GetDLLVersion()
T3198 146:644.595 - 0.004ms returns 68803
T3198 146:644.604 JLINK_CORE_GetFound()
T3198 146:644.607 - 0.004ms returns 0x60000FF
T3198 146:644.613 JLINK_GetDebugInfo(0x100 = JLINKARM_ROM_TABLE_ADDR_INDEX)
T3198 146:644.629   Value=0xF0000000
T3198 146:644.634 - 0.021ms returns 0
T3198 146:646.109 JLINK_GetDebugInfo(0x100 = JLINKARM_ROM_TABLE_ADDR_INDEX)
T3198 146:646.118   Value=0xF0000000
T3198 146:646.123 - 0.015ms returns 0
T3198 146:646.127 JLINK_GetDebugInfo(0x101 = JLINKARM_DEBUG_INFO_ETM_ADDR_INDEX)
T3198 146:646.130   Value=0x00000000
T3198 146:646.134 - 0.008ms returns 0
T3198 146:646.141 JLINK_ReadMemEx(0xE0041FF0, 0x10 Bytes, Flags = 0x02000004)
T3198 146:646.150   CPU_ReadMem(16 bytes @ 0xE0041FF0)
T3198 146:748.148   Data:  00 00 00 00 00 00 00 00 00 00 00 00 00 00 00 00
T3198 146:748.161 - 102.021ms returns 16 (0x10)
T3198 146:748.191 JLINK_GetDebugInfo(0x102 = JLINKARM_DEBUG_INFO_MTB_ADDR_INDEX)
T3198 146:748.195   Value=0x00000000
T3198 146:748.199 - 0.009ms returns 0
T3198 146:748.206 JLINK_GetDebugInfo(0x103 = JLINKARM_DEBUG_INFO_TPIU_ADDR_INDEX)
T3198 146:748.209   Value=0x00000000
T3198 146:748.213 - 0.008ms returns 0
T3198 146:748.224 JLINK_ReadMemEx(0xE0040FF0, 0x10 Bytes, Flags = 0x02000004)
T3198 146:748.233   CPU_ReadMem(16 bytes @ 0xE0040FF0)
T3198 146:749.386   Data:  00 00 00 00 00 00 00 00 00 00 00 00 00 00 00 00
T3198 146:749.392 - 1.169ms returns 16 (0x10)
T3198 146:749.407 JLINK_GetDebugInfo(0x104 = JLINKARM_DEBUG_INFO_ITM_ADDR_INDEX)
T3198 146:749.410   Value=0xE0000000
T3198 146:749.414 - 0.009ms returns 0
T3198 146:749.418 JLINK_GetDebugInfo(0x105 = JLINKARM_DEBUG_INFO_DWT_ADDR_INDEX)
T3198 146:749.421   Value=0xE0001000
T3198 146:749.426 - 0.009ms returns 0
T3198 146:749.429 JLINK_GetDebugInfo(0x106 = JLINKARM_DEBUG_INFO_FPB_ADDR_INDEX)
T3198 146:749.432   Value=0xE0002000
T3198 146:749.436 - 0.008ms returns 0
T3198 146:749.439 JLINK_GetDebugInfo(0x107 = JLINKARM_DEBUG_INFO_NVIC_ADDR_INDEX)
T3198 146:749.442   Value=0xE000E000
T3198 146:749.446 - 0.008ms returns 0
T3198 146:749.450 JLINK_GetDebugInfo(0x10C = JLINKARM_DEBUG_INFO_DBG_ADDR_INDEX)
T3198 146:749.453   Value=0xE000EDF0
T3198 146:749.457 - 0.008ms returns 0
T3198 146:749.460 JLINK_GetDebugInfo(0x01 = Unknown)
T3198 146:749.463   Value=0x00000000
T3198 146:749.467 - 0.008ms returns 0
T3198 146:749.474 JLINK_ReadMemU32(0xE000ED00, 0x1 Items)
T3198 146:749.480   CPU_ReadMem(4 bytes @ 0xE000ED00)
T3198 146:750.339   Data:  00 C2 0C 41
T3198 146:750.345   Debug reg: CPUID
T3198 146:750.349 - 0.877ms returns 1 (0x1)
T3198 146:750.364 JLINK_GetDebugInfo(0x10F = JLINKARM_DEBUG_INFO_HAS_CORTEX_M_SECURITY_EXT_INDEX)
T3198 146:750.368   Value=0x00000000
T3198 146:750.372 - 0.008ms returns 0
T3198 146:750.376 JLINK_HasError()
T3198 146:750.381 JLINK_SetResetType(JLINKARM_CM3_RESET_TYPE_NORMAL)
T3198 146:750.384 - 0.004ms returns JLINKARM_CM3_RESET_TYPE_NORMAL
T3198 146:750.389 JLINK_Reset()
T3198 146:750.992   CPU is running
T3198 146:750.999   CPU_WriteMem(4 bytes @ 0xE000EDF0)
T3198 146:751.865   CPU is running
T3198 146:751.877   CPU_WriteMem(4 bytes @ 0xE000EDFC)
T3198 146:754.303   Reset: Halt core after reset via DEMCR.VC_CORERESET.
T3198 146:756.490   Reset: Reset device via AIRCR.SYSRESETREQ.
T3198 146:756.503   CPU is running
T3198 146:756.509   CPU_WriteMem(4 bytes @ 0xE000ED0C)
T3198 146:810.544   CPU_ReadMem(4 bytes @ 0xE000EDF0)
T3198 146:811.657   CPU_ReadMem(4 bytes @ 0xE000EDF0)
T3198 146:812.654   CPU is running
T3198 146:812.683   CPU_WriteMem(4 bytes @ 0xE000EDF0)
T3198 146:813.698   CPU is running
T3198 146:813.725   CPU_WriteMem(4 bytes @ 0xE000EDFC)
T3198 146:820.316   CPU_ReadMem(4 bytes @ 0xE000EDF0)
T3198 146:832.890   CPU_WriteMem(4 bytes @ 0xE0002000)
T3198 146:834.036   CPU_ReadMem(4 bytes @ 0xE000EDFC)
T3198 146:835.078   CPU_ReadMem(4 bytes @ 0xE0001000)
T3198 146:836.230   CPU_WriteMem(4 bytes @ 0xE0001000)
T3198 146:837.615 - 87.241ms
T3198 146:837.888 JLINK_Halt()
T3198 146:837.936 - 0.054ms returns 0x00
T3198 146:837.954 JLINK_ReadMemU32(0xE000EDF0, 0x1 Items)
T3198 146:837.984   CPU_ReadMem(4 bytes @ 0xE000EDF0)
T3198 146:942.657   Data:  03 00 03 00
T3198 146:942.669   Debug reg: DHCSR
T3198 146:942.673 - 104.720ms returns 1 (0x1)
T3198 146:942.706 JLINK_WriteU32_64(0xE000EDF0, 0xA05F0003)
T3198 146:942.710   Debug reg: DHCSR
T3198 146:942.918   CPU_WriteMem(4 bytes @ 0xE000EDF0)
T3198 146:953.331 - 10.630ms returns 0 (0x00000000)
T3198 146:953.372 JLINK_WriteU32_64(0xE000EDFC, 0x01000000)
T3198 146:953.377   Debug reg: DEMCR
T3198 146:953.385   CPU_WriteMem(4 bytes @ 0xE000EDFC)
T3198 146:955.967 - 2.597ms returns 0 (0x00000000)
T3198 146:963.633 JLINK_GetHWStatus(...)
T3198 146:964.285 - 0.660ms returns 0
T3198 146:971.534 JLINK_GetNumBPUnits(Type = 0xFFFFFF00)
T3198 146:971.548 - 0.015ms returns 0x04
T3198 146:971.553 JLINK_GetNumBPUnits(Type = 0xF0)
T3198 146:971.556 - 0.004ms returns 0x2000
T3198 146:971.560 JLINK_GetNumWPUnits()
T3198 146:971.563 - 0.004ms returns 2
T3198 146:975.713 JLINK_GetSpeed()
T3198 146:975.725 - 0.013ms returns 500
T3198 146:978.486 JLINK_ReadMemU32(0xE000E004, 0x1 Items)
T3198 146:978.503   CPU_ReadMem(4 bytes @ 0xE000E004)
T3198 146:981.054   Data:  00 00 00 00
T3198 146:981.065 - 2.580ms returns 1 (0x1)
T3198 146:981.096 JLINK_Halt()
T3198 146:981.100 - 0.005ms returns 0x00
T3198 146:981.106 JLINK_IsHalted()
T3198 146:981.110 - 0.004ms returns TRUE
T3198 146:982.992 JLINK_WriteMem(0x20000000, 0x7D0 Bytes, ...)
T3198 146:983.000   Data:  00 BE 0A E0 0D 78 2D 06 68 40 08 24 40 00 00 D3 ...
T3198 146:983.228   CPU_WriteMem(2000 bytes @ 0x20000000)
T3198 147:036.695 - 53.741ms returns 0x7D0
T3198 147:037.142 JLINK_HasError()
T3198 147:037.197 JLINK_WriteReg(R0, 0x00000000)
T3198 147:037.220 - 0.030ms returns 0
T3198 147:037.238 JLINK_WriteReg(R1, 0x00B71B00)
T3198 147:037.252 - 0.021ms returns 0
T3198 147:037.268 JLINK_WriteReg(R2, 0x00000001)
T3198 147:037.281 - 0.019ms returns 0
T3198 147:037.297 JLINK_WriteReg(R3, 0x00000000)
T3198 147:037.310 - 0.019ms returns 0
T3198 147:037.326 JLINK_WriteReg(R4, 0x00000000)
T3198 147:037.339 - 0.019ms returns 0
T3198 147:037.354 JLINK_WriteReg(R5, 0x00000000)
T3198 147:037.367 - 0.019ms returns 0
T3198 147:037.382 JLINK_WriteReg(R6, 0x00000000)
T3198 147:037.396 - 0.019ms returns 0
T3198 147:037.411 JLINK_WriteReg(R7, 0x00000000)
T3198 147:037.424 - 0.019ms returns 0
T3198 147:037.439 JLINK_WriteReg(R8, 0x00000000)
T3198 147:037.453 - 0.019ms returns 0
T3198 147:037.468 JLINK_WriteReg(R9, 0x200007CC)
T3198 147:037.481 - 0.019ms returns 0
T3198 147:037.496 JLINK_WriteReg(R10, 0x00000000)
T3198 147:037.509 - 0.019ms returns 0
T3198 147:037.525 JLINK_WriteReg(R11, 0x00000000)
T3198 147:037.538 - 0.019ms returns 0
T3198 147:037.554 JLINK_WriteReg(R12, 0x00000000)
T3198 147:037.567 - 0.019ms returns 0
T3198 147:037.582 JLINK_WriteReg(R13 (SP), 0x20004000)
T3198 147:037.597 - 0.021ms returns 0
T3198 147:037.613 JLINK_WriteReg(R14, 0x20000001)
T3198 147:037.626 - 0.019ms returns 0
T3198 147:037.641 JLINK_WriteReg(R15 (PC), 0x20000020)
T3198 147:037.655 - 0.019ms returns 0
T3198 147:037.670 JLINK_WriteReg(XPSR, 0x01000000)
T3198 147:037.684 - 0.019ms returns 0
T3198 147:037.699 JLINK_WriteReg(MSP, 0x20004000)
T3198 147:037.712 - 0.019ms returns 0
T3198 147:037.727 JLINK_WriteReg(PSP, 0x20004000)
T3198 147:037.740 - 0.019ms returns 0
T3198 147:037.756 JLINK_WriteReg(CFBP, 0x00000000)
T3198 147:037.769 - 0.019ms returns 0
T3198 147:037.788 JLINK_SetBPEx(Addr = 0x20000000, Type = 0xFFFFFFF2)
T3198 147:037.813   CPU_ReadMem(2 bytes @ 0x20000000)
T3198 147:041.883 - 4.144ms returns 0x00000001
T3198 147:042.248 JLINK_Go()
T3198 147:042.321   CPU_WriteMem(2 bytes @ 0x20000000)
T3198 147:048.491   CPU_ReadMem(4 bytes @ 0xE0001000)
T3198 147:051.196   CPU_WriteMem(4 bytes @ 0xE0001000)
T3198 147:051.227   CPU_WriteMem(4 bytes @ 0xE0002008)
T3198 147:051.239   CPU_WriteMem(4 bytes @ 0xE000200C)
T3198 147:051.250   CPU_WriteMem(4 bytes @ 0xE0002010)
T3198 147:051.260   CPU_WriteMem(4 bytes @ 0xE0002014)
T3198 147:058.571   CPU_WriteMem(4 bytes @ 0xE0001004)
T3198 147:074.732 - 32.519ms
T3198 147:074.907 JLINK_IsHalted()
T3198 147:089.934   CPU_ReadMem(2 bytes @ 0x20000000)
T3198 147:092.366 - 17.497ms returns TRUE
T3198 147:092.619 JLINK_ReadReg(R15 (PC))
T3198 147:092.640 - 0.026ms returns 0x20000000
T3198 147:092.661 JLINK_ClrBPEx(BPHandle = 0x00000001)
T3198 147:092.673 - 0.016ms returns 0x00
T3198 147:092.689 JLINK_ReadReg(R0)
T3198 147:092.699 - 0.014ms returns 0x00000000
T3198 147:093.451 JLINK_HasError()
T3198 147:093.477 JLINK_WriteReg(R0, 0x0001B000)
T3198 147:093.489 - 0.016ms returns 0
T3198 147:093.499 JLINK_WriteReg(R1, 0x00000400)
T3198 147:093.508 - 0.013ms returns 0
T3198 147:093.518 JLINK_WriteReg(R2, 0x000000FF)
T3198 147:093.527 - 0.012ms returns 0
T3198 147:093.537 JLINK_WriteReg(R3, 0x00000000)
T3198 147:093.546 - 0.013ms returns 0
T3198 147:093.556 JLINK_WriteReg(R4, 0x00000000)
T3198 147:093.563 - 0.011ms returns 0
T3198 147:093.572 JLINK_WriteReg(R5, 0x00000000)
T3198 147:093.580 - 0.011ms returns 0
T3198 147:093.589 JLINK_WriteReg(R6, 0x00000000)
T3198 147:093.597 - 0.011ms returns 0
T3198 147:093.606 JLINK_WriteReg(R7, 0x00000000)
T3198 147:093.614 - 0.011ms returns 0
T3198 147:093.623 JLINK_WriteReg(R8, 0x00000000)
T3198 147:093.631 - 0.011ms returns 0
T3198 147:093.640 JLINK_WriteReg(R9, 0x200007CC)
T3198 147:093.648 - 0.011ms returns 0
T3198 147:093.657 JLINK_WriteReg(R10, 0x00000000)
T3198 147:093.665 - 0.011ms returns 0
T3198 147:093.674 JLINK_WriteReg(R11, 0x00000000)
T3198 147:093.682 - 0.011ms returns 0
T3198 147:093.691 JLINK_WriteReg(R12, 0x00000000)
T3198 147:093.699 - 0.011ms returns 0
T3198 147:093.708 JLINK_WriteReg(R13 (SP), 0x20004000)
T3198 147:093.717 - 0.012ms returns 0
T3198 147:093.726 JLINK_WriteReg(R14, 0x20000001)
T3198 147:093.734 - 0.011ms returns 0
T3198 147:093.744 JLINK_WriteReg(R15 (PC), 0x2000026C)
T3198 147:093.751 - 0.011ms returns 0
T3198 147:093.761 JLINK_WriteReg(XPSR, 0x01000000)
T3198 147:093.769 - 0.011ms returns 0
T3198 147:093.779 JLINK_WriteReg(MSP, 0x20004000)
T3198 147:093.786 - 0.011ms returns 0
T3198 147:093.796 JLINK_WriteReg(PSP, 0x20004000)
T3198 147:093.803 - 0.011ms returns 0
T3198 147:093.813 JLINK_WriteReg(CFBP, 0x00000000)
T3198 147:093.820 - 0.011ms returns 0
T3198 147:093.830 JLINK_SetBPEx(Addr = 0x20000000, Type = 0xFFFFFFF2)
T3198 147:093.840 - 0.013ms returns 0x00000002
T3198 147:093.849 JLINK_Go()
T3198 147:093.869   CPU_ReadMem(4 bytes @ 0xE0001000)
T3198 147:097.522   CPU_WriteMem(4 bytes @ 0xE0001000)
T3198 147:113.495 - 19.683ms
T3198 147:113.634 JLINK_IsHalted()
T3198 147:131.084   CPU_ReadMem(2 bytes @ 0x20000000)
T3198 147:133.494 - 19.876ms returns TRUE
T3198 147:133.634 JLINK_ReadReg(R15 (PC))
T3198 147:133.656 - 0.028ms returns 0x20000000
T3198 147:133.673 JLINK_ClrBPEx(BPHandle = 0x00000002)
T3198 147:133.687 - 0.020ms returns 0x00
T3198 147:133.715 JLINK_ReadReg(R0)
T3198 147:133.728 - 0.019ms returns 0x00000001
T3198 147:133.744 JLINK_HasError()
T3198 147:133.761 JLINK_WriteReg(R0, 0x0001B000)
T3198 147:133.775 - 0.020ms returns 0
T3198 147:133.791 JLINK_WriteReg(R1, 0x00000400)
T3198 147:133.803 - 0.017ms returns 0
T3198 147:133.817 JLINK_WriteReg(R2, 0x000000FF)
T3198 147:133.830 - 0.018ms returns 0
T3198 147:133.845 JLINK_WriteReg(R3, 0x00000000)
T3198 147:133.857 - 0.017ms returns 0
T3198 147:133.871 JLINK_WriteReg(R4, 0x00000000)
T3198 147:133.883 - 0.018ms returns 0
T3198 147:133.898 JLINK_WriteReg(R5, 0x00000000)
T3198 147:133.910 - 0.017ms returns 0
T3198 147:133.924 JLINK_WriteReg(R6, 0x00000000)
T3198 147:133.936 - 0.017ms returns 0
T3198 147:133.950 JLINK_WriteReg(R7, 0x00000000)
T3198 147:134.118 - 0.173ms returns 0
T3198 147:134.133 JLINK_WriteReg(R8, 0x00000000)
T3198 147:134.146 - 0.018ms returns 0
T3198 147:134.160 JLINK_WriteReg(R9, 0x200007CC)
T3198 147:134.172 - 0.018ms returns 0
T3198 147:134.188 JLINK_WriteReg(R10, 0x00000000)
T3198 147:134.202 - 0.019ms returns 0
T3198 147:134.217 JLINK_WriteReg(R11, 0x00000000)
T3198 147:134.231 - 0.019ms returns 0
T3198 147:134.247 JLINK_WriteReg(R12, 0x00000000)
T3198 147:134.261 - 0.020ms returns 0
T3198 147:134.277 JLINK_WriteReg(R13 (SP), 0x20004000)
T3198 147:134.292 - 0.021ms returns 0
T3198 147:134.307 JLINK_WriteReg(R14, 0x20000001)
T3198 147:134.321 - 0.020ms returns 0
T3198 147:134.336 JLINK_WriteReg(R15 (PC), 0x200000CC)
T3198 147:134.350 - 0.020ms returns 0
T3198 147:134.366 JLINK_WriteReg(XPSR, 0x01000000)
T3198 147:134.380 - 0.020ms returns 0
T3198 147:134.396 JLINK_WriteReg(MSP, 0x20004000)
T3198 147:134.408 - 0.019ms returns 0
T3198 147:134.424 JLINK_WriteReg(PSP, 0x20004000)
T3198 147:134.437 - 0.019ms returns 0
T3198 147:134.453 JLINK_WriteReg(CFBP, 0x00000000)
T3198 147:134.466 - 0.019ms returns 0
T3198 147:134.482 JLINK_SetBPEx(Addr = 0x20000000, Type = 0xFFFFFFF2)
T3198 147:134.499 - 0.023ms returns 0x00000003
T3198 147:134.515 JLINK_Go()
T3198 147:134.545   CPU_ReadMem(4 bytes @ 0xE0001000)
T3198 147:138.497   CPU_WriteMem(4 bytes @ 0xE0001000)
T3198 147:154.559 - 20.068ms
T3198 147:154.689 JLINK_IsHalted()
T3198 147:159.836 - 5.164ms returns FALSE
T3198 147:159.966 JLINK_HasError()
T3198 147:179.399 JLINK_IsHalted()
T3198 147:195.083   CPU_ReadMem(2 bytes @ 0x20000000)
T3198 147:197.759 - 18.369ms returns TRUE
T3198 147:197.834 JLINK_ReadReg(R15 (PC))
T3198 147:197.847 - 0.016ms returns 0x20000000
T3198 147:197.862 JLINK_ClrBPEx(BPHandle = 0x00000003)
T3198 147:197.870 - 0.011ms returns 0x00
T3198 147:197.878 JLINK_ReadReg(R0)
T3198 147:197.886 - 0.010ms returns 0x00000000
T3198 147:198.608 JLINK_HasError()
T3198 147:198.627 JLINK_WriteReg(R0, 0x0001B400)
T3198 147:198.637 - 0.012ms returns 0
T3198 147:198.644 JLINK_WriteReg(R1, 0x00000400)
T3198 147:198.651 - 0.009ms returns 0
T3198 147:198.658 JLINK_WriteReg(R2, 0x000000FF)
T3198 147:198.664 - 0.008ms returns 0
T3198 147:198.671 JLINK_WriteReg(R3, 0x00000000)
T3198 147:198.677 - 0.008ms returns 0
T3198 147:198.684 JLINK_WriteReg(R4, 0x00000000)
T3198 147:198.690 - 0.008ms returns 0
T3198 147:198.698 JLINK_WriteReg(R5, 0x00000000)
T3198 147:198.704 - 0.009ms returns 0
T3198 147:198.711 JLINK_WriteReg(R6, 0x00000000)
T3198 147:198.717 - 0.008ms returns 0
T3198 147:198.724 JLINK_WriteReg(R7, 0x00000000)
T3198 147:198.731 - 0.009ms returns 0
T3198 147:198.738 JLINK_WriteReg(R8, 0x00000000)
T3198 147:198.744 - 0.008ms returns 0
T3198 147:198.751 JLINK_WriteReg(R9, 0x200007CC)
T3198 147:198.757 - 0.008ms returns 0
T3198 147:198.764 JLINK_WriteReg(R10, 0x00000000)
T3198 147:198.771 - 0.009ms returns 0
T3198 147:198.778 JLINK_WriteReg(R11, 0x00000000)
T3198 147:198.784 - 0.008ms returns 0
T3198 147:198.791 JLINK_WriteReg(R12, 0x00000000)
T3198 147:198.797 - 0.008ms returns 0
T3198 147:198.804 JLINK_WriteReg(R13 (SP), 0x20004000)
T3198 147:198.811 - 0.009ms returns 0
T3198 147:198.818 JLINK_WriteReg(R14, 0x20000001)
T3198 147:198.824 - 0.009ms returns 0
T3198 147:198.831 JLINK_WriteReg(R15 (PC), 0x2000026C)
T3198 147:198.837 - 0.009ms returns 0
T3198 147:198.844 JLINK_WriteReg(XPSR, 0x01000000)
T3198 147:198.851 - 0.009ms returns 0
T3198 147:198.858 JLINK_WriteReg(MSP, 0x20004000)
T3198 147:198.864 - 0.008ms returns 0
T3198 147:198.871 JLINK_WriteReg(PSP, 0x20004000)
T3198 147:198.877 - 0.009ms returns 0
T3198 147:198.884 JLINK_WriteReg(CFBP, 0x00000000)
T3198 147:198.890 - 0.009ms returns 0
T3198 147:198.898 JLINK_SetBPEx(Addr = 0x20000000, Type = 0xFFFFFFF2)
T3198 147:198.906 - 0.010ms returns 0x00000004
T3198 147:198.913 JLINK_Go()
T3198 147:198.928   CPU_ReadMem(4 bytes @ 0xE0001000)
T3198 147:202.834   CPU_WriteMem(4 bytes @ 0xE0001000)
T3198 147:218.949 - 20.075ms
T3198 147:219.096 JLINK_IsHalted()
T3198 147:236.304   CPU_ReadMem(2 bytes @ 0x20000000)
T3198 147:238.930 - 19.846ms returns TRUE
T3198 147:239.047 JLINK_ReadReg(R15 (PC))
T3198 147:239.070 - 0.029ms returns 0x20000000
T3198 147:239.099 JLINK_ClrBPEx(BPHandle = 0x00000004)
T3198 147:239.115 - 0.022ms returns 0x00
T3198 147:239.132 JLINK_ReadReg(R0)
T3198 147:239.146 - 0.020ms returns 0x00000001
T3198 147:239.164 JLINK_HasError()
T3198 147:239.182 JLINK_WriteReg(R0, 0x0001B400)
T3198 147:239.197 - 0.022ms returns 0
T3198 147:239.213 JLINK_WriteReg(R1, 0x00000400)
T3198 147:239.227 - 0.034ms returns 0
T3198 147:239.259 JLINK_WriteReg(R2, 0x000000FF)
T3198 147:239.273 - 0.020ms returns 0
T3198 147:239.289 JLINK_WriteReg(R3, 0x00000000)
T3198 147:239.302 - 0.021ms returns 0
T3198 147:239.320 JLINK_WriteReg(R4, 0x00000000)
T3198 147:239.364 - 0.051ms returns 0
T3198 147:239.381 JLINK_WriteReg(R5, 0x00000000)
T3198 147:239.394 - 0.019ms returns 0
T3198 147:239.410 JLINK_WriteReg(R6, 0x00000000)
T3198 147:239.423 - 0.019ms returns 0
T3198 147:239.439 JLINK_WriteReg(R7, 0x00000000)
T3198 147:239.452 - 0.019ms returns 0
T3198 147:239.467 JLINK_WriteReg(R8, 0x00000000)
T3198 147:239.480 - 0.019ms returns 0
T3198 147:239.496 JLINK_WriteReg(R9, 0x200007CC)
T3198 147:239.509 - 0.019ms returns 0
T3198 147:239.525 JLINK_WriteReg(R10, 0x00000000)
T3198 147:239.539 - 0.019ms returns 0
T3198 147:239.554 JLINK_WriteReg(R11, 0x00000000)
T3198 147:239.567 - 0.019ms returns 0
T3198 147:239.583 JLINK_WriteReg(R12, 0x00000000)
T3198 147:239.596 - 0.019ms returns 0
T3198 147:239.612 JLINK_WriteReg(R13 (SP), 0x20004000)
T3198 147:239.626 - 0.021ms returns 0
T3198 147:239.642 JLINK_WriteReg(R14, 0x20000001)
T3198 147:239.655 - 0.019ms returns 0
T3198 147:239.671 JLINK_WriteReg(R15 (PC), 0x200000CC)
T3198 147:239.685 - 0.019ms returns 0
T3198 147:239.700 JLINK_WriteReg(XPSR, 0x01000000)
T3198 147:239.716 - 0.021ms returns 0
T3198 147:239.731 JLINK_WriteReg(MSP, 0x20004000)
T3198 147:239.744 - 0.019ms returns 0
T3198 147:239.760 JLINK_WriteReg(PSP, 0x20004000)
T3198 147:239.773 - 0.019ms returns 0
T3198 147:239.789 JLINK_WriteReg(CFBP, 0x00000000)
T3198 147:239.802 - 0.019ms returns 0
T3198 147:239.818 JLINK_SetBPEx(Addr = 0x20000000, Type = 0xFFFFFFF2)
T3198 147:239.834 - 0.022ms returns 0x00000005
T3198 147:239.850 JLINK_Go()
T3198 147:239.878   CPU_ReadMem(4 bytes @ 0xE0001000)
T3198 147:244.023   CPU_WriteMem(4 bytes @ 0xE0001000)
T3198 147:260.115 - 20.303ms
T3198 147:260.270 JLINK_IsHalted()
T3198 147:262.994 - 2.737ms returns FALSE
T3198 147:263.096 JLINK_HasError()
T3198 147:269.350 JLINK_IsHalted()
T3198 147:272.137 - 2.820ms returns FALSE
T3198 147:272.309 JLINK_HasError()
T3198 147:274.152 JLINK_IsHalted()
T3198 147:277.068 - 2.926ms returns FALSE
T3198 147:277.156 JLINK_HasError()
T3198 147:278.944 JLINK_IsHalted()
T3198 147:294.445   CPU_ReadMem(2 bytes @ 0x20000000)
T3198 147:297.050 - 18.118ms returns TRUE
T3198 147:297.166 JLINK_ReadReg(R15 (PC))
T3198 147:297.187 - 0.029ms returns 0x20000000
T3198 147:297.218 JLINK_ClrBPEx(BPHandle = 0x00000005)
T3198 147:297.233 - 0.021ms returns 0x00
T3198 147:297.250 JLINK_ReadReg(R0)
T3198 147:297.265 - 0.021ms returns 0x00000000
T3198 147:298.549 JLINK_HasError()
T3198 147:298.592 JLINK_WriteReg(R0, 0x0001B800)
T3198 147:298.612 - 0.026ms returns 0
T3198 147:298.629 JLINK_WriteReg(R1, 0x00000400)
T3198 147:298.643 - 0.020ms returns 0
T3198 147:298.658 JLINK_WriteReg(R2, 0x000000FF)
T3198 147:298.672 - 0.020ms returns 0
T3198 147:298.688 JLINK_WriteReg(R3, 0x00000000)
T3198 147:298.701 - 0.019ms returns 0
T3198 147:298.717 JLINK_WriteReg(R4, 0x00000000)
T3198 147:298.730 - 0.019ms returns 0
T3198 147:298.746 JLINK_WriteReg(R5, 0x00000000)
T3198 147:298.759 - 0.019ms returns 0
T3198 147:298.808 JLINK_WriteReg(R6, 0x00000000)
T3198 147:298.822 - 0.020ms returns 0
T3198 147:298.838 JLINK_WriteReg(R7, 0x00000000)
T3198 147:298.851 - 0.019ms returns 0
T3198 147:298.867 JLINK_WriteReg(R8, 0x00000000)
T3198 147:298.892 - 0.037ms returns 0
T3198 147:298.914 JLINK_WriteReg(R9, 0x200007CC)
T3198 147:298.927 - 0.019ms returns 0
T3198 147:298.943 JLINK_WriteReg(R10, 0x00000000)
T3198 147:298.956 - 0.019ms returns 0
T3198 147:298.971 JLINK_WriteReg(R11, 0x00000000)
T3198 147:298.985 - 0.019ms returns 0
T3198 147:299.000 JLINK_WriteReg(R12, 0x00000000)
T3198 147:299.014 - 0.019ms returns 0
T3198 147:299.029 JLINK_WriteReg(R13 (SP), 0x20004000)
T3198 147:299.044 - 0.021ms returns 0
T3198 147:299.060 JLINK_WriteReg(R14, 0x20000001)
T3198 147:299.073 - 0.019ms returns 0
T3198 147:299.089 JLINK_WriteReg(R15 (PC), 0x2000026C)
T3198 147:299.208 - 0.128ms returns 0
T3198 147:299.229 JLINK_WriteReg(XPSR, 0x01000000)
T3198 147:299.243 - 0.020ms returns 0
T3198 147:299.259 JLINK_WriteReg(MSP, 0x20004000)
T3198 147:299.272 - 0.019ms returns 0
T3198 147:299.288 JLINK_WriteReg(PSP, 0x20004000)
T3198 147:299.301 - 0.020ms returns 0
T3198 147:299.318 JLINK_WriteReg(CFBP, 0x00000000)
T3198 147:299.331 - 0.019ms returns 0
T3198 147:299.347 JLINK_SetBPEx(Addr = 0x20000000, Type = 0xFFFFFFF2)
T3198 147:299.365 - 0.023ms returns 0x00000006
T3198 147:299.382 JLINK_Go()
T3198 147:299.413   CPU_ReadMem(4 bytes @ 0xE0001000)
T3198 147:302.181   CPU_WriteMem(4 bytes @ 0xE0001000)
T3198 147:318.208 - 18.849ms
T3198 147:318.322 JLINK_IsHalted()
T3198 147:333.253   CPU_ReadMem(2 bytes @ 0x20000000)
T3198 147:335.908 - 17.626ms returns TRUE
T3198 147:336.101 JLINK_ReadReg(R15 (PC))
T3198 147:336.132 - 0.039ms returns 0x20000000
T3198 147:336.171 JLINK_ClrBPEx(BPHandle = 0x00000006)
T3198 147:336.188 - 0.024ms returns 0x00
T3198 147:336.207 JLINK_ReadReg(R0)
T3198 147:336.223 - 0.023ms returns 0x00000001
T3198 147:336.242 JLINK_HasError()
T3198 147:336.261 JLINK_WriteReg(R0, 0x0001B800)
T3198 147:336.278 - 0.024ms returns 0
T3198 147:336.296 JLINK_WriteReg(R1, 0x00000400)
T3198 147:336.311 - 0.022ms returns 0
T3198 147:336.328 JLINK_WriteReg(R2, 0x000000FF)
T3198 147:336.343 - 0.021ms returns 0
T3198 147:336.360 JLINK_WriteReg(R3, 0x00000000)
T3198 147:336.375 - 0.021ms returns 0
T3198 147:336.392 JLINK_WriteReg(R4, 0x00000000)
T3198 147:336.407 - 0.023ms returns 0
T3198 147:336.426 JLINK_WriteReg(R5, 0x00000000)
T3198 147:336.440 - 0.021ms returns 0
T3198 147:336.458 JLINK_WriteReg(R6, 0x00000000)
T3198 147:336.472 - 0.021ms returns 0
T3198 147:336.489 JLINK_WriteReg(R7, 0x00000000)
T3198 147:336.504 - 0.021ms returns 0
T3198 147:336.522 JLINK_WriteReg(R8, 0x00000000)
T3198 147:336.536 - 0.021ms returns 0
T3198 147:336.554 JLINK_WriteReg(R9, 0x200007CC)
T3198 147:336.569 - 0.141ms returns 0
T3198 147:336.728 JLINK_WriteReg(R10, 0x00000000)
T3198 147:336.754 - 0.034ms returns 0
T3198 147:336.773 JLINK_WriteReg(R11, 0x00000000)
T3198 147:336.789 - 0.023ms returns 0
T3198 147:336.807 JLINK_WriteReg(R12, 0x00000000)
T3198 147:336.822 - 0.022ms returns 0
T3198 147:336.839 JLINK_WriteReg(R13 (SP), 0x20004000)
T3198 147:336.856 - 0.024ms returns 0
T3198 147:336.874 JLINK_WriteReg(R14, 0x20000001)
T3198 147:336.889 - 0.022ms returns 0
T3198 147:336.906 JLINK_WriteReg(R15 (PC), 0x200000CC)
T3198 147:336.922 - 0.022ms returns 0
T3198 147:336.940 JLINK_WriteReg(XPSR, 0x01000000)
T3198 147:336.955 - 0.022ms returns 0
T3198 147:336.972 JLINK_WriteReg(MSP, 0x20004000)
T3198 147:336.989 - 0.023ms returns 0
T3198 147:337.006 JLINK_WriteReg(PSP, 0x20004000)
T3198 147:337.021 - 0.021ms returns 0
T3198 147:337.038 JLINK_WriteReg(CFBP, 0x00000000)
T3198 147:337.053 - 0.021ms returns 0
T3198 147:337.072 JLINK_SetBPEx(Addr = 0x20000000, Type = 0xFFFFFFF2)
T3198 147:337.091 - 0.026ms returns 0x00000007
T3198 147:337.110 JLINK_Go()
T3198 147:337.144   CPU_ReadMem(4 bytes @ 0xE0001000)
T3198 147:346.747   CPU_WriteMem(4 bytes @ 0xE0001000)
T3198 147:362.846 - 25.757ms
T3198 147:362.935 JLINK_IsHalted()
T3198 147:368.100 - 5.174ms returns FALSE
T3198 147:368.161 JLINK_HasError()
T3198 147:373.564 JLINK_IsHalted()
T3198 147:374.936 - 1.386ms returns FALSE
T3198 147:375.012 JLINK_HasError()
T3198 147:376.555 JLINK_IsHalted()
T3198 147:380.189 - 3.648ms returns FALSE
T3198 147:380.255 JLINK_HasError()
T3198 147:382.111 JLINK_IsHalted()
T3198 147:397.323   CPU_ReadMem(2 bytes @ 0x20000000)
T3198 147:399.940 - 17.840ms returns TRUE
T3198 147:400.050 JLINK_ReadReg(R15 (PC))
T3198 147:400.074 - 0.030ms returns 0x20000000
T3198 147:400.092 JLINK_ClrBPEx(BPHandle = 0x00000007)
T3198 147:400.107 - 0.021ms returns 0x00
T3198 147:400.124 JLINK_ReadReg(R0)
T3198 147:400.138 - 0.020ms returns 0x00000000
T3198 147:401.664 JLINK_HasError()
T3198 147:401.704 JLINK_WriteReg(R0, 0x0001BC00)
T3198 147:401.723 - 0.025ms returns 0
T3198 147:401.740 JLINK_WriteReg(R1, 0x00000400)
T3198 147:401.754 - 0.020ms returns 0
T3198 147:401.770 JLINK_WriteReg(R2, 0x000000FF)
T3198 147:401.784 - 0.020ms returns 0
T3198 147:401.800 JLINK_WriteReg(R3, 0x00000000)
T3198 147:401.813 - 0.019ms returns 0
T3198 147:401.828 JLINK_WriteReg(R4, 0x00000000)
T3198 147:401.841 - 0.019ms returns 0
T3198 147:401.857 JLINK_WriteReg(R5, 0x00000000)
T3198 147:401.870 - 0.019ms returns 0
T3198 147:401.886 JLINK_WriteReg(R6, 0x00000000)
T3198 147:401.899 - 0.070ms returns 0
T3198 147:401.968 JLINK_WriteReg(R7, 0x00000000)
T3198 147:401.982 - 0.020ms returns 0
T3198 147:401.998 JLINK_WriteReg(R8, 0x00000000)
T3198 147:402.011 - 0.019ms returns 0
T3198 147:402.027 JLINK_WriteReg(R9, 0x200007CC)
T3198 147:402.042 - 0.021ms returns 0
T3198 147:402.058 JLINK_WriteReg(R10, 0x00000000)
T3198 147:402.072 - 0.021ms returns 0
T3198 147:402.089 JLINK_WriteReg(R11, 0x00000000)
T3198 147:402.102 - 0.020ms returns 0
T3198 147:402.119 JLINK_WriteReg(R12, 0x00000000)
T3198 147:402.131 - 0.017ms returns 0
T3198 147:402.146 JLINK_WriteReg(R13 (SP), 0x20004000)
T3198 147:402.159 - 0.019ms returns 0
T3198 147:402.174 JLINK_WriteReg(R14, 0x20000001)
T3198 147:402.186 - 0.017ms returns 0
T3198 147:402.200 JLINK_WriteReg(R15 (PC), 0x2000026C)
T3198 147:402.213 - 0.018ms returns 0
T3198 147:402.227 JLINK_WriteReg(XPSR, 0x01000000)
T3198 147:402.239 - 0.018ms returns 0
T3198 147:402.253 JLINK_WriteReg(MSP, 0x20004000)
T3198 147:402.265 - 0.017ms returns 0
T3198 147:402.280 JLINK_WriteReg(PSP, 0x20004000)
T3198 147:402.292 - 0.017ms returns 0
T3198 147:402.306 JLINK_WriteReg(CFBP, 0x00000000)
T3198 147:402.318 - 0.018ms returns 0
T3198 147:402.333 JLINK_SetBPEx(Addr = 0x20000000, Type = 0xFFFFFFF2)
T3198 147:402.348 - 0.021ms returns 0x00000008
T3198 147:402.363 JLINK_Go()
T3198 147:402.391   CPU_ReadMem(4 bytes @ 0xE0001000)
T3198 147:404.883   CPU_WriteMem(4 bytes @ 0xE0001000)
T3198 147:420.999 - 18.668ms
T3198 147:421.115 JLINK_IsHalted()
T3198 147:436.101   CPU_ReadMem(2 bytes @ 0x20000000)
T3198 147:438.562 - 17.462ms returns TRUE
T3198 147:438.663 JLINK_ReadReg(R15 (PC))
T3198 147:438.685 - 0.029ms returns 0x20000000
T3198 147:438.704 JLINK_ClrBPEx(BPHandle = 0x00000008)
T3198 147:438.720 - 0.022ms returns 0x00
T3198 147:438.737 JLINK_ReadReg(R0)
T3198 147:438.751 - 0.020ms returns 0x00000001
T3198 147:438.769 JLINK_HasError()
T3198 147:438.799 JLINK_WriteReg(R0, 0x0001BC00)
T3198 147:438.815 - 0.022ms returns 0
T3198 147:438.833 JLINK_WriteReg(R1, 0x00000400)
T3198 147:438.846 - 0.020ms returns 0
T3198 147:438.862 JLINK_WriteReg(R2, 0x000000FF)
T3198 147:438.876 - 0.019ms returns 0
T3198 147:438.892 JLINK_WriteReg(R3, 0x00000000)
T3198 147:438.905 - 0.020ms returns 0
T3198 147:438.922 JLINK_WriteReg(R4, 0x00000000)
T3198 147:438.935 - 0.019ms returns 0
T3198 147:438.951 JLINK_WriteReg(R5, 0x00000000)
T3198 147:438.964 - 0.019ms returns 0
T3198 147:438.980 JLINK_WriteReg(R6, 0x00000000)
T3198 147:438.994 - 0.019ms returns 0
T3198 147:439.009 JLINK_WriteReg(R7, 0x00000000)
T3198 147:439.022 - 0.019ms returns 0
T3198 147:439.038 JLINK_WriteReg(R8, 0x00000000)
T3198 147:439.082 - 0.051ms returns 0
T3198 147:439.099 JLINK_WriteReg(R9, 0x200007CC)
T3198 147:439.112 - 0.019ms returns 0
T3198 147:439.128 JLINK_WriteReg(R10, 0x00000000)
T3198 147:439.141 - 0.019ms returns 0
T3198 147:439.157 JLINK_WriteReg(R11, 0x00000000)
T3198 147:439.292 - 0.142ms returns 0
T3198 147:439.309 JLINK_WriteReg(R12, 0x00000000)
T3198 147:439.322 - 0.019ms returns 0
T3198 147:439.338 JLINK_WriteReg(R13 (SP), 0x20004000)
T3198 147:439.352 - 0.020ms returns 0
T3198 147:439.368 JLINK_WriteReg(R14, 0x20000001)
T3198 147:439.381 - 0.019ms returns 0
T3198 147:439.397 JLINK_WriteReg(R15 (PC), 0x200000CC)
T3198 147:439.411 - 0.020ms returns 0
T3198 147:439.426 JLINK_WriteReg(XPSR, 0x01000000)
T3198 147:439.440 - 0.037ms returns 0
T3198 147:439.474 JLINK_WriteReg(MSP, 0x20004000)
T3198 147:439.487 - 0.020ms returns 0
T3198 147:439.503 JLINK_WriteReg(PSP, 0x20004000)
T3198 147:439.517 - 0.020ms returns 0
T3198 147:439.533 JLINK_WriteReg(CFBP, 0x00000000)
T3198 147:439.546 - 0.019ms returns 0
T3198 147:439.562 JLINK_SetBPEx(Addr = 0x20000000, Type = 0xFFFFFFF2)
T3198 147:439.579 - 0.023ms returns 0x00000009
T3198 147:439.595 JLINK_Go()
T3198 147:439.624   CPU_ReadMem(4 bytes @ 0xE0001000)
T3198 147:443.649   CPU_WriteMem(4 bytes @ 0xE0001000)
T3198 147:459.910 - 20.339ms
T3198 147:460.025 JLINK_IsHalted()
T3198 147:465.193 - 5.188ms returns FALSE
T3198 147:465.352 JLINK_HasError()
T3198 147:474.054 JLINK_IsHalted()
T3198 147:476.482 - 2.434ms returns FALSE
T3198 147:476.524 JLINK_HasError()
T3198 147:478.277 JLINK_IsHalted()
T3198 147:493.712   CPU_ReadMem(2 bytes @ 0x20000000)
T3198 147:496.215 - 17.952ms returns TRUE
T3198 147:496.336 JLINK_ReadReg(R15 (PC))
T3198 147:496.359 - 0.030ms returns 0x20000000
T3198 147:496.377 JLINK_ClrBPEx(BPHandle = 0x00000009)
T3198 147:496.392 - 0.021ms returns 0x00
T3198 147:496.409 JLINK_ReadReg(R0)
T3198 147:496.423 - 0.022ms returns 0x00000000
T3198 147:497.762 JLINK_HasError()
T3198 147:497.800 JLINK_WriteReg(R0, 0x0001C000)
T3198 147:497.818 - 0.023ms returns 0
T3198 147:497.834 JLINK_WriteReg(R1, 0x00000400)
T3198 147:497.846 - 0.018ms returns 0
T3198 147:497.861 JLINK_WriteReg(R2, 0x000000FF)
T3198 147:497.873 - 0.018ms returns 0
T3198 147:497.888 JLINK_WriteReg(R3, 0x00000000)
T3198 147:497.900 - 0.017ms returns 0
T3198 147:497.914 JLINK_WriteReg(R4, 0x00000000)
T3198 147:497.926 - 0.047ms returns 0
T3198 147:497.971 JLINK_WriteReg(R5, 0x00000000)
T3198 147:497.984 - 0.018ms returns 0
T3198 147:497.998 JLINK_WriteReg(R6, 0x00000000)
T3198 147:498.010 - 0.017ms returns 0
T3198 147:498.024 JLINK_WriteReg(R7, 0x00000000)
T3198 147:498.036 - 0.017ms returns 0
T3198 147:498.051 JLINK_WriteReg(R8, 0x00000000)
T3198 147:498.063 - 0.017ms returns 0
T3198 147:498.077 JLINK_WriteReg(R9, 0x200007CC)
T3198 147:498.089 - 0.017ms returns 0
T3198 147:498.103 JLINK_WriteReg(R10, 0x00000000)
T3198 147:498.116 - 0.018ms returns 0
T3198 147:498.179 JLINK_WriteReg(R11, 0x00000000)
T3198 147:498.196 - 0.024ms returns 0
T3198 147:498.214 JLINK_WriteReg(R12, 0x00000000)
T3198 147:498.227 - 0.020ms returns 0
T3198 147:498.243 JLINK_WriteReg(R13 (SP), 0x20004000)
T3198 147:498.258 - 0.021ms returns 0
T3198 147:498.273 JLINK_WriteReg(R14, 0x20000001)
T3198 147:498.287 - 0.019ms returns 0
T3198 147:498.303 JLINK_WriteReg(R15 (PC), 0x2000026C)
T3198 147:498.316 - 0.019ms returns 0
T3198 147:498.332 JLINK_WriteReg(XPSR, 0x01000000)
T3198 147:498.345 - 0.019ms returns 0
T3198 147:498.361 JLINK_WriteReg(MSP, 0x20004000)
T3198 147:498.374 - 0.019ms returns 0
T3198 147:498.390 JLINK_WriteReg(PSP, 0x20004000)
T3198 147:498.403 - 0.019ms returns 0
T3198 147:498.418 JLINK_WriteReg(CFBP, 0x00000000)
T3198 147:498.432 - 0.019ms returns 0
T3198 147:498.448 JLINK_SetBPEx(Addr = 0x20000000, Type = 0xFFFFFFF2)
T3198 147:498.464 - 0.023ms returns 0x0000000A
T3198 147:498.481 JLINK_Go()
T3198 147:498.511   CPU_ReadMem(4 bytes @ 0xE0001000)
T3198 147:501.198   CPU_WriteMem(4 bytes @ 0xE0001000)
T3198 147:517.204 - 18.745ms
T3198 147:517.318 JLINK_IsHalted()
T3198 147:534.395   CPU_ReadMem(2 bytes @ 0x20000000)
T3198 147:536.982 - 19.678ms returns TRUE
T3198 147:537.105 JLINK_ReadReg(R15 (PC))
T3198 147:537.128 - 0.029ms returns 0x20000000
T3198 147:537.157 JLINK_ClrBPEx(BPHandle = 0x0000000A)
T3198 147:537.189 - 0.038ms returns 0x00
T3198 147:537.206 JLINK_ReadReg(R0)
T3198 147:537.221 - 0.021ms returns 0x00000001
T3198 147:537.239 JLINK_HasError()
T3198 147:537.256 JLINK_WriteReg(R0, 0x0001C000)
T3198 147:537.271 - 0.021ms returns 0
T3198 147:537.287 JLINK_WriteReg(R1, 0x00000400)
T3198 147:537.301 - 0.020ms returns 0
T3198 147:537.317 JLINK_WriteReg(R2, 0x000000FF)
T3198 147:537.330 - 0.019ms returns 0
T3198 147:537.389 JLINK_WriteReg(R3, 0x00000000)
T3198 147:537.404 - 0.020ms returns 0
T3198 147:537.420 JLINK_WriteReg(R4, 0x00000000)
T3198 147:537.433 - 0.019ms returns 0
T3198 147:537.448 JLINK_WriteReg(R5, 0x00000000)
T3198 147:537.461 - 0.019ms returns 0
T3198 147:537.477 JLINK_WriteReg(R6, 0x00000000)
T3198 147:537.490 - 0.019ms returns 0
T3198 147:537.506 JLINK_WriteReg(R7, 0x00000000)
T3198 147:537.519 - 0.019ms returns 0
T3198 147:537.535 JLINK_WriteReg(R8, 0x00000000)
T3198 147:537.549 - 0.020ms returns 0
T3198 147:537.565 JLINK_WriteReg(R9, 0x200007CC)
T3198 147:537.578 - 0.019ms returns 0
T3198 147:537.593 JLINK_WriteReg(R10, 0x00000000)
T3198 147:537.607 - 0.019ms returns 0
T3198 147:537.622 JLINK_WriteReg(R11, 0x00000000)
T3198 147:537.635 - 0.019ms returns 0
T3198 147:537.651 JLINK_WriteReg(R12, 0x00000000)
T3198 147:537.664 - 0.019ms returns 0
T3198 147:537.680 JLINK_WriteReg(R13 (SP), 0x20004000)
T3198 147:537.694 - 0.020ms returns 0
T3198 147:537.710 JLINK_WriteReg(R14, 0x20000001)
T3198 147:537.723 - 0.019ms returns 0
T3198 147:537.739 JLINK_WriteReg(R15 (PC), 0x200000CC)
T3198 147:537.752 - 0.019ms returns 0
T3198 147:537.768 JLINK_WriteReg(XPSR, 0x01000000)
T3198 147:537.781 - 0.019ms returns 0
T3198 147:537.797 JLINK_WriteReg(MSP, 0x20004000)
T3198 147:537.810 - 0.019ms returns 0
T3198 147:537.825 JLINK_WriteReg(PSP, 0x20004000)
T3198 147:537.838 - 0.019ms returns 0
T3198 147:537.854 JLINK_WriteReg(CFBP, 0x00000000)
T3198 147:537.868 - 0.019ms returns 0
T3198 147:537.884 JLINK_SetBPEx(Addr = 0x20000000, Type = 0xFFFFFFF2)
T3198 147:537.900 - 0.022ms returns 0x0000000B
T3198 147:537.917 JLINK_Go()
T3198 147:537.945   CPU_ReadMem(4 bytes @ 0xE0001000)
T3198 147:542.074   CPU_WriteMem(4 bytes @ 0xE0001000)
T3198 147:567.933 - 30.036ms
T3198 147:568.056 JLINK_IsHalted()
T3198 147:570.832 - 2.787ms returns FALSE
T3198 147:570.934 JLINK_HasError()
T3198 147:577.460 JLINK_IsHalted()
T3198 147:580.026 - 2.582ms returns FALSE
T3198 147:580.131 JLINK_HasError()
T3198 147:581.904 JLINK_IsHalted()
T3198 147:584.862 - 2.970ms returns FALSE
T3198 147:584.956 JLINK_HasError()
T3198 147:586.818 JLINK_IsHalted()
T3198 147:602.183   CPU_ReadMem(2 bytes @ 0x20000000)
T3198 147:604.887 - 18.106ms returns TRUE
T3198 147:605.032 JLINK_ReadReg(R15 (PC))
T3198 147:605.054 - 0.029ms returns 0x20000000
T3198 147:605.073 JLINK_ClrBPEx(BPHandle = 0x0000000B)
T3198 147:605.089 - 0.022ms returns 0x00
T3198 147:605.122 JLINK_ReadReg(R0)
T3198 147:605.136 - 0.020ms returns 0x00000000
T3198 147:607.120 JLINK_HasError()
T3198 147:607.177 JLINK_WriteReg(R0, 0x0001C400)
T3198 147:607.199 - 0.029ms returns 0
T3198 147:607.216 JLINK_WriteReg(R1, 0x00000400)
T3198 147:607.231 - 0.020ms returns 0
T3198 147:607.246 JLINK_WriteReg(R2, 0x000000FF)
T3198 147:607.259 - 0.019ms returns 0
T3198 147:607.275 JLINK_WriteReg(R3, 0x00000000)
T3198 147:607.288 - 0.019ms returns 0
T3198 147:607.304 JLINK_WriteReg(R4, 0x00000000)
T3198 147:607.317 - 0.019ms returns 0
T3198 147:607.332 JLINK_WriteReg(R5, 0x00000000)
T3198 147:607.345 - 0.019ms returns 0
T3198 147:607.360 JLINK_WriteReg(R6, 0x00000000)
T3198 147:607.373 - 0.019ms returns 0
T3198 147:607.389 JLINK_WriteReg(R7, 0x00000000)
T3198 147:607.402 - 0.019ms returns 0
T3198 147:607.417 JLINK_WriteReg(R8, 0x00000000)
T3198 147:607.430 - 0.019ms returns 0
T3198 147:607.446 JLINK_WriteReg(R9, 0x200007CC)
T3198 147:607.459 - 0.019ms returns 0
T3198 147:607.474 JLINK_WriteReg(R10, 0x00000000)
T3198 147:607.488 - 0.020ms returns 0
T3198 147:607.607 JLINK_WriteReg(R11, 0x00000000)
T3198 147:607.645 - 0.050ms returns 0
T3198 147:607.669 JLINK_WriteReg(R12, 0x00000000)
T3198 147:607.682 - 0.020ms returns 0
T3198 147:607.699 JLINK_WriteReg(R13 (SP), 0x20004000)
T3198 147:607.714 - 0.021ms returns 0
T3198 147:607.729 JLINK_WriteReg(R14, 0x20000001)
T3198 147:607.743 - 0.019ms returns 0
T3198 147:607.759 JLINK_WriteReg(R15 (PC), 0x2000026C)
T3198 147:607.772 - 0.020ms returns 0
T3198 147:607.788 JLINK_WriteReg(XPSR, 0x01000000)
T3198 147:607.801 - 0.019ms returns 0
T3198 147:607.818 JLINK_WriteReg(MSP, 0x20004000)
T3198 147:607.831 - 0.019ms returns 0
T3198 147:607.846 JLINK_WriteReg(PSP, 0x20004000)
T3198 147:607.859 - 0.019ms returns 0
T3198 147:607.875 JLINK_WriteReg(CFBP, 0x00000000)
T3198 147:607.888 - 0.019ms returns 0
T3198 147:607.904 JLINK_SetBPEx(Addr = 0x20000000, Type = 0xFFFFFFF2)
T3198 147:607.922 - 0.080ms returns 0x0000000C
T3198 147:607.996 JLINK_Go()
T3198 147:608.029   CPU_ReadMem(4 bytes @ 0xE0001000)
T3198 147:609.965   CPU_WriteMem(4 bytes @ 0xE0001000)
T3198 147:626.055 - 18.090ms
T3198 147:626.234 JLINK_IsHalted()
T3198 147:640.940   CPU_ReadMem(2 bytes @ 0x20000000)
T3198 147:643.642 - 17.413ms returns TRUE
T3198 147:643.702 JLINK_ReadReg(R15 (PC))
T3198 147:643.715 - 0.016ms returns 0x20000000
T3198 147:643.725 JLINK_ClrBPEx(BPHandle = 0x0000000C)
T3198 147:643.733 - 0.011ms returns 0x00
T3198 147:643.742 JLINK_ReadReg(R0)
T3198 147:643.750 - 0.011ms returns 0x00000001
T3198 147:643.759 JLINK_HasError()
T3198 147:643.769 JLINK_WriteReg(R0, 0x0001C400)
T3198 147:643.777 - 0.012ms returns 0
T3198 147:643.796 JLINK_WriteReg(R1, 0x00000400)
T3198 147:643.804 - 0.011ms returns 0
T3198 147:643.812 JLINK_WriteReg(R2, 0x000000FF)
T3198 147:643.820 - 0.010ms returns 0
T3198 147:643.828 JLINK_WriteReg(R3, 0x00000000)
T3198 147:643.836 - 0.011ms returns 0
T3198 147:643.844 JLINK_WriteReg(R4, 0x00000000)
T3198 147:643.870 - 0.029ms returns 0
T3198 147:643.880 JLINK_WriteReg(R5, 0x00000000)
T3198 147:643.887 - 0.010ms returns 0
T3198 147:643.896 JLINK_WriteReg(R6, 0x00000000)
T3198 147:643.903 - 0.011ms returns 0
T3198 147:643.912 JLINK_WriteReg(R7, 0x00000000)
T3198 147:643.919 - 0.010ms returns 0
T3198 147:643.928 JLINK_WriteReg(R8, 0x00000000)
T3198 147:643.935 - 0.010ms returns 0
T3198 147:643.944 JLINK_WriteReg(R9, 0x200007CC)
T3198 147:643.952 - 0.011ms returns 0
T3198 147:643.961 JLINK_WriteReg(R10, 0x00000000)
T3198 147:643.968 - 0.010ms returns 0
T3198 147:643.977 JLINK_WriteReg(R11, 0x00000000)
T3198 147:643.984 - 0.010ms returns 0
T3198 147:643.993 JLINK_WriteReg(R12, 0x00000000)
T3198 147:644.000 - 0.010ms returns 0
T3198 147:644.008 JLINK_WriteReg(R13 (SP), 0x20004000)
T3198 147:644.016 - 0.011ms returns 0
T3198 147:644.025 JLINK_WriteReg(R14, 0x20000001)
T3198 147:644.032 - 0.011ms returns 0
T3198 147:644.041 JLINK_WriteReg(R15 (PC), 0x200000CC)
T3198 147:644.049 - 0.010ms returns 0
T3198 147:644.057 JLINK_WriteReg(XPSR, 0x01000000)
T3198 147:644.065 - 0.011ms returns 0
T3198 147:644.074 JLINK_WriteReg(MSP, 0x20004000)
T3198 147:644.081 - 0.011ms returns 0
T3198 147:644.090 JLINK_WriteReg(PSP, 0x20004000)
T3198 147:644.097 - 0.010ms returns 0
T3198 147:644.105 JLINK_WriteReg(CFBP, 0x00000000)
T3198 147:644.113 - 0.010ms returns 0
T3198 147:644.122 JLINK_SetBPEx(Addr = 0x20000000, Type = 0xFFFFFFF2)
T3198 147:644.131 - 0.012ms returns 0x0000000D
T3198 147:644.140 JLINK_Go()
T3198 147:644.156   CPU_ReadMem(4 bytes @ 0xE0001000)
T3198 147:648.744   CPU_WriteMem(4 bytes @ 0xE0001000)
T3198 147:665.209 - 21.094ms
T3198 147:665.349 JLINK_IsHalted()
T3198 147:667.841 - 2.503ms returns FALSE
T3198 147:667.928 JLINK_HasError()
T3198 147:674.759 JLINK_IsHalted()
T3198 147:676.984 - 2.239ms returns FALSE
T3198 147:677.060 JLINK_HasError()
T3198 147:679.080 JLINK_IsHalted()
T3198 147:681.851 - 2.780ms returns FALSE
T3198 147:681.926 JLINK_HasError()
T3198 147:683.081 JLINK_IsHalted()
T3198 147:699.231   CPU_ReadMem(2 bytes @ 0x20000000)
T3198 147:701.854 - 18.784ms returns TRUE
T3198 147:701.970 JLINK_ReadReg(R15 (PC))
T3198 147:701.998 - 0.034ms returns 0x20000000
T3198 147:702.016 JLINK_ClrBPEx(BPHandle = 0x0000000D)
T3198 147:702.030 - 0.021ms returns 0x00
T3198 147:702.047 JLINK_ReadReg(R0)
T3198 147:702.062 - 0.021ms returns 0x00000000
T3198 147:703.501 JLINK_HasError()
T3198 147:703.542 JLINK_WriteReg(R0, 0x0001C800)
T3198 147:703.562 - 0.026ms returns 0
T3198 147:703.579 JLINK_WriteReg(R1, 0x00000400)
T3198 147:703.595 - 0.022ms returns 0
T3198 147:703.611 JLINK_WriteReg(R2, 0x000000FF)
T3198 147:703.624 - 0.020ms returns 0
T3198 147:703.640 JLINK_WriteReg(R3, 0x00000000)
T3198 147:703.653 - 0.019ms returns 0
T3198 147:703.669 JLINK_WriteReg(R4, 0x00000000)
T3198 147:703.683 - 0.019ms returns 0
T3198 147:703.698 JLINK_WriteReg(R5, 0x00000000)
T3198 147:703.711 - 0.019ms returns 0
T3198 147:703.727 JLINK_WriteReg(R6, 0x00000000)
T3198 147:703.740 - 0.019ms returns 0
T3198 147:703.756 JLINK_WriteReg(R7, 0x00000000)
T3198 147:703.769 - 0.019ms returns 0
T3198 147:703.784 JLINK_WriteReg(R8, 0x00000000)
T3198 147:703.797 - 0.019ms returns 0
T3198 147:703.813 JLINK_WriteReg(R9, 0x200007CC)
T3198 147:703.826 - 0.019ms returns 0
T3198 147:703.842 JLINK_WriteReg(R10, 0x00000000)
T3198 147:703.855 - 0.019ms returns 0
T3198 147:703.871 JLINK_WriteReg(R11, 0x00000000)
T3198 147:703.884 - 0.019ms returns 0
T3198 147:703.900 JLINK_WriteReg(R12, 0x00000000)
T3198 147:703.913 - 0.019ms returns 0
T3198 147:703.929 JLINK_WriteReg(R13 (SP), 0x20004000)
T3198 147:703.943 - 0.022ms returns 0
T3198 147:703.960 JLINK_WriteReg(R14, 0x20000001)
T3198 147:704.025 - 0.072ms returns 0
T3198 147:704.043 JLINK_WriteReg(R15 (PC), 0x2000026C)
T3198 147:704.057 - 0.020ms returns 0
T3198 147:704.073 JLINK_WriteReg(XPSR, 0x01000000)
T3198 147:704.102 - 0.035ms returns 0
T3198 147:704.118 JLINK_WriteReg(MSP, 0x20004000)
T3198 147:704.131 - 0.019ms returns 0
T3198 147:704.146 JLINK_WriteReg(PSP, 0x20004000)
T3198 147:704.160 - 0.019ms returns 0
T3198 147:704.175 JLINK_WriteReg(CFBP, 0x00000000)
T3198 147:704.188 - 0.019ms returns 0
T3198 147:704.205 JLINK_SetBPEx(Addr = 0x20000000, Type = 0xFFFFFFF2)
T3198 147:704.222 - 0.022ms returns 0x0000000E
T3198 147:704.238 JLINK_Go()
T3198 147:704.268   CPU_ReadMem(4 bytes @ 0xE0001000)
T3198 147:706.946   CPU_WriteMem(4 bytes @ 0xE0001000)
T3198 147:722.996 - 18.787ms
T3198 147:723.115 JLINK_IsHalted()
T3198 147:738.016   CPU_ReadMem(2 bytes @ 0x20000000)
T3198 147:740.616 - 17.513ms returns TRUE
T3198 147:740.728 JLINK_ReadReg(R15 (PC))
T3198 147:740.750 - 0.029ms returns 0x20000000
T3198 147:740.768 JLINK_ClrBPEx(BPHandle = 0x0000000E)
T3198 147:740.786 - 0.025ms returns 0x00
T3198 147:740.815 JLINK_ReadReg(R0)
T3198 147:740.829 - 0.020ms returns 0x00000001
T3198 147:740.848 JLINK_HasError()
T3198 147:740.865 JLINK_WriteReg(R0, 0x0001C800)
T3198 147:740.880 - 0.022ms returns 0
T3198 147:740.896 JLINK_WriteReg(R1, 0x00000400)
T3198 147:740.910 - 0.019ms returns 0
T3198 147:740.926 JLINK_WriteReg(R2, 0x000000FF)
T3198 147:740.939 - 0.019ms returns 0
T3198 147:740.955 JLINK_WriteReg(R3, 0x00000000)
T3198 147:740.968 - 0.019ms returns 0
T3198 147:740.984 JLINK_WriteReg(R4, 0x00000000)
T3198 147:740.997 - 0.019ms returns 0
T3198 147:741.013 JLINK_WriteReg(R5, 0x00000000)
T3198 147:741.026 - 0.019ms returns 0
T3198 147:741.042 JLINK_WriteReg(R6, 0x00000000)
T3198 147:741.055 - 0.019ms returns 0
T3198 147:741.071 JLINK_WriteReg(R7, 0x00000000)
T3198 147:741.084 - 0.019ms returns 0
T3198 147:741.127 JLINK_WriteReg(R8, 0x00000000)
T3198 147:741.141 - 0.020ms returns 0
T3198 147:741.157 JLINK_WriteReg(R9, 0x200007CC)
T3198 147:741.170 - 0.019ms returns 0
T3198 147:741.186 JLINK_WriteReg(R10, 0x00000000)
T3198 147:741.200 - 0.021ms returns 0
T3198 147:741.216 JLINK_WriteReg(R11, 0x00000000)
T3198 147:741.229 - 0.019ms returns 0
T3198 147:741.245 JLINK_WriteReg(R12, 0x00000000)
T3198 147:741.258 - 0.019ms returns 0
T3198 147:741.274 JLINK_WriteReg(R13 (SP), 0x20004000)
T3198 147:741.289 - 0.020ms returns 0
T3198 147:741.315 JLINK_WriteReg(R14, 0x20000001)
T3198 147:741.334 - 0.026ms returns 0
T3198 147:741.350 JLINK_WriteReg(R15 (PC), 0x200000CC)
T3198 147:741.364 - 0.020ms returns 0
T3198 147:741.380 JLINK_WriteReg(XPSR, 0x01000000)
T3198 147:741.393 - 0.019ms returns 0
T3198 147:741.409 JLINK_WriteReg(MSP, 0x20004000)
T3198 147:741.422 - 0.019ms returns 0
T3198 147:741.438 JLINK_WriteReg(PSP, 0x20004000)
T3198 147:741.451 - 0.019ms returns 0
T3198 147:741.466 JLINK_WriteReg(CFBP, 0x00000000)
T3198 147:741.480 - 0.019ms returns 0
T3198 147:741.496 JLINK_SetBPEx(Addr = 0x20000000, Type = 0xFFFFFFF2)
T3198 147:741.512 - 0.022ms returns 0x0000000F
T3198 147:741.528 JLINK_Go()
T3198 147:741.556   CPU_ReadMem(4 bytes @ 0xE0001000)
T3198 147:745.733   CPU_WriteMem(4 bytes @ 0xE0001000)
T3198 147:761.879 - 20.373ms
T3198 147:761.995 JLINK_IsHalted()
T3198 147:767.135 - 5.155ms returns FALSE
T3198 147:767.256 JLINK_HasError()
T3198 147:771.054 JLINK_IsHalted()
T3198 147:773.936 - 2.899ms returns FALSE
T3198 147:774.046 JLINK_HasError()
T3198 147:775.549 JLINK_IsHalted()
T3198 147:779.202 - 3.666ms returns FALSE
T3198 147:779.300 JLINK_HasError()
T3198 147:781.363 JLINK_IsHalted()
T3198 147:796.155   CPU_ReadMem(2 bytes @ 0x20000000)
T3198 147:798.787 - 17.436ms returns TRUE
T3198 147:798.899 JLINK_ReadReg(R15 (PC))
T3198 147:798.921 - 0.028ms returns 0x20000000
T3198 147:798.949 JLINK_ClrBPEx(BPHandle = 0x0000000F)
T3198 147:798.964 - 0.021ms returns 0x00
T3198 147:798.981 JLINK_ReadReg(R0)
T3198 147:798.995 - 0.020ms returns 0x00000000
T3198 147:800.376 JLINK_HasError()
T3198 147:800.420 JLINK_WriteReg(R0, 0x0001CC00)
T3198 147:800.440 - 0.026ms returns 0
T3198 147:800.457 JLINK_WriteReg(R1, 0x00000400)
T3198 147:800.471 - 0.020ms returns 0
T3198 147:800.487 JLINK_WriteReg(R2, 0x000000FF)
T3198 147:800.501 - 0.020ms returns 0
T3198 147:800.517 JLINK_WriteReg(R3, 0x00000000)
